
T2040 000:332 SEGGER J-Link V4.96d Log File (0001ms, 0291ms total)
T2040 000:332 DLL Compiled: Jan 29 2015 11:45:37 (0001ms, 0291ms total)
T2040 000:332 Logging started @ 2019-01-15 23:41 (0001ms, 0291ms total)
T2040 000:333 JLINK_SetWarnOutHandler(...) (0000ms, 0291ms total)
T2040 000:333 JLINK_OpenEx(...)
Firmware: J-Link V9 compiled Dec  2 2016 15:35:20
Hardware: V9.40
S/N: 269400321
Feature(s): GDB, RDI, FlashBP, FlashDL, JFlash, RDDI  returns O.K. (0286ms, 0577ms total)
T2040 000:619 JLINK_SetErrorOutHandler(...) (0000ms, 0577ms total)
T2040 000:619 JLINK_ExecCommand("ProjectFile = "Z:\workplace_课程\郝应光_面向对象编程\作业\大作业\下位机程序\USER\JLinkSettings.ini"", ...)  returns 0x00 (0000ms, 0577ms total)
T2040 000:625 JLINK_ExecCommand("Device = STM32F103ZE", ...)Device "STM32F103ZE" selected.  returns 0x00 (0006ms, 0584ms total)
T2040 000:632 JLINK_ExecCommand("DisableConnectionTimeout", ...)  returns 0x01 (0000ms, 0584ms total)
T2040 000:632 JLINK_GetHardwareVersion()  returns 0x16F30 (0000ms, 0584ms total)
T2040 000:632 JLINK_GetDLLVersion()  returns 49604 (0000ms, 0584ms total)
T2040 000:632 JLINK_GetFirmwareString(...) (0000ms, 0584ms total)
T2040 000:658 JLINK_GetDLLVersion()  returns 49604 (0000ms, 0584ms total)
T2040 000:658 JLINK_GetCompileDateTime() (0000ms, 0584ms total)
T2040 000:662 JLINK_GetFirmwareString(...) (0000ms, 0584ms total)
T2040 000:664 JLINK_GetHardwareVersion()  returns 0x16F30 (0000ms, 0584ms total)
T2040 000:676 JLINK_TIF_Select(JLINKARM_TIF_JTAG)  returns 0x00 (0005ms, 0589ms total)
T2040 000:681 JLINK_SetSpeed(50000) (0001ms, 0590ms total)
T2040 000:682 JLINK_GetIdData(...) >0x2F8 JTAG>TotalIRLen = 9, IRPrint = 0x0011 >0x30 JTAG> >0x210 JTAG> >0x40 JTAG> >0x40 JTAG> >0x40 JTAG> >0x30 JTAG> >0x40 JTAG> >0x40 JTAG> >0x40 JTAG> >0x40 JTAG> >0x40 JTAG> >0x40 JTAG> >0x40 JTAG> >0x40 JTAG> >0x40 JTAG> >0x40 JTAG> >0x2F8 JTAG>TotalIRLen = 9, IRPrint = 0x0011 >0x30 JTAG> >0x210 JTAG> >0x70 JTAG> >0x40 JTAG> >0x40 JTAG> >0x40 JTAG> >0x50 JTAG> >0x80 JTAG> >0x40 JTAG> >0x30 JTAG> >0x40 JTAG> >0x40 JTAG> >0x30 JTAG> >0x40 JTAG> >0x50 JTAG>
Found Cortex-M3 r1p1, Little endian. -- CPU_WriteMem(4 bytes @ 0xE0002000) -- CPU_ReadMem(4 bytes @ 0xE000EDF0) -- CPU_WriteMem(4 bytes @ 0xE000EDF0) -- CPU_ReadMem(4 bytes @ 0xE0002000)FPUnit: 6 code (BP) slots and 2 literal slots -- CPU_ReadMem(4 bytes @ 0xE000EDFC) -- CPU_WriteMem(4 bytes @ 0xE000EDFC) -- CPU_ReadMem(4 bytes @ 0xE0001000) -- CPU_WriteMem(4 bytes @ 0xE0001000) -- CPU_ReadMem(4 bytes @ 0xE000ED88) -- CPU_WriteMem(4 bytes @ 0xE000ED88) -- CPU_ReadMem(4 bytes @ 0xE000ED88)
 -- CPU_WriteMem(4 bytes @ 0xE000ED88) -- CPU_ReadMem(4 bytes @ 0xE00FF010)TPIU fitted. -- CPU_ReadMem(4 bytes @ 0xE00FF014)ETM fitted. -- CPU_ReadMem(4 bytes @ 0xE00FF018) ScanLen=9 NumDevices=2 aId[0]=0x3BA00477 aIrRead[0]=0 aScanLen[0]=0 aScanRead[0]=0 (0072ms, 0662ms total)
T2040 000:754 JLINK_JTAG_GetDeviceID(DeviceIndex = 0)  returns 0x3BA00477 (0000ms, 0662ms total)
T2040 000:754 JLINK_JTAG_GetDeviceInfo(DeviceIndex = 0)  returns 0x00 (0000ms, 0662ms total)
T2040 000:754 JLINK_JTAG_GetDeviceID(DeviceIndex = 1)  returns 0x6414041 (0000ms, 0662ms total)
T2040 000:754 JLINK_JTAG_GetDeviceInfo(DeviceIndex = 1)  returns 0x00 (0000ms, 0662ms total)
T2040 000:754 JLINK_GetDLLVersion()  returns 49604 (0000ms, 0662ms total)
T2040 000:754 JLINK_CORE_GetFound()  returns 0x30000FF (0000ms, 0662ms total)
T2040 000:754 JLINK_GetDebugInfo(0x100) -- Value=0xE00FF003  returns 0x00 (0000ms, 0662ms total)
T2040 000:757 JLINK_ReadMem (0xE00FF000, 0x0020 Bytes, ...) -- CPU is running -- CPU_ReadMem(32 bytes @ 0xE00FF000) - Data: 03 F0 F0 FF 03 20 F0 FF 03 30 F0 FF 03 10 F0 FF ...  returns 0x00 (0001ms, 0663ms total)
T2040 000:758 JLINK_ReadMem (0xE000EFF0, 0x0010 Bytes, ...) -- CPU is running -- CPU_ReadMem(16 bytes @ 0xE000EFF0) - Data: 0D 00 00 00 E0 00 00 00 05 00 00 00 B1 00 00 00  returns 0x00 (0001ms, 0664ms total)
T2040 000:759 JLINK_ReadMem (0xE000EFD0, 0x0020 Bytes, ...) -- CPU is running -- CPU_ReadMem(32 bytes @ 0xE000EFD0) - Data: 04 00 00 00 00 00 00 00 00 00 00 00 00 00 00 00 ...  returns 0x00 (0001ms, 0665ms total)
T2040 000:760 JLINK_ReadMem (0xE0001FF0, 0x0010 Bytes, ...) -- CPU is running -- CPU_ReadMem(16 bytes @ 0xE0001FF0) - Data: 0D 00 00 00 E0 00 00 00 05 00 00 00 B1 00 00 00  returns 0x00 (0001ms, 0666ms total)
T2040 000:761 JLINK_ReadMem (0xE0001FD0, 0x0020 Bytes, ...) -- CPU is running -- CPU_ReadMem(32 bytes @ 0xE0001FD0) - Data: 04 00 00 00 00 00 00 00 00 00 00 00 00 00 00 00 ...  returns 0x00 (0001ms, 0667ms total)
T2040 000:762 JLINK_ReadMem (0xE0002FF0, 0x0010 Bytes, ...) -- CPU is running -- CPU_ReadMem(16 bytes @ 0xE0002FF0) - Data: 0D 00 00 00 E0 00 00 00 05 00 00 00 B1 00 00 00  returns 0x00 (0001ms, 0668ms total)
T2040 000:763 JLINK_ReadMem (0xE0002FD0, 0x0020 Bytes, ...) -- CPU is running -- CPU_ReadMem(32 bytes @ 0xE0002FD0) - Data: 04 00 00 00 00 00 00 00 00 00 00 00 00 00 00 00 ...  returns 0x00 (0001ms, 0669ms total)
T2040 000:764 JLINK_ReadMem (0xE0000FF0, 0x0010 Bytes, ...) -- CPU is running -- CPU_ReadMem(16 bytes @ 0xE0000FF0) - Data: 0D 00 00 00 E0 00 00 00 05 00 00 00 B1 00 00 00  returns 0x00 (0001ms, 0670ms total)
T2040 000:765 JLINK_ReadMem (0xE0000FD0, 0x0020 Bytes, ...) -- CPU is running -- CPU_ReadMem(32 bytes @ 0xE0000FD0) - Data: 04 00 00 00 00 00 00 00 00 00 00 00 00 00 00 00 ...  returns 0x00 (0001ms, 0671ms total)
T2040 000:766 JLINK_ReadMem (0xE0040FF0, 0x0010 Bytes, ...) -- CPU is running -- CPU_ReadMem(16 bytes @ 0xE0040FF0) - Data: 0D 00 00 00 90 00 00 00 05 00 00 00 B1 00 00 00  returns 0x00 (0001ms, 0672ms total)
T2040 000:767 JLINK_ReadMem (0xE0040FD0, 0x0020 Bytes, ...) -- CPU is running -- CPU_ReadMem(32 bytes @ 0xE0040FD0) - Data: 04 00 00 00 00 00 00 00 00 00 00 00 00 00 00 00 ...  returns 0x00 (0001ms, 0673ms total)
T2040 000:768 JLINK_ReadMem (0xE0041FF0, 0x0010 Bytes, ...) -- CPU is running -- CPU_ReadMem(16 bytes @ 0xE0041FF0) - Data: 0D 00 00 00 90 00 00 00 05 00 00 00 B1 00 00 00  returns 0x00 (0001ms, 0674ms total)
T2040 000:769 JLINK_ReadMem (0xE0041FD0, 0x0020 Bytes, ...) -- CPU is running -- CPU_ReadMem(32 bytes @ 0xE0041FD0) - Data: 04 00 00 00 00 00 00 00 00 00 00 00 00 00 00 00 ...  returns 0x00 (0001ms, 0675ms total)
T2040 000:770 JLINK_ReadMemU32(0xE000ED00, 0x0001 Items, ...) -- CPU is running -- CPU_ReadMem(4 bytes @ 0xE000ED00) - Data: 31 C2 1F 41  returns 0x01 (0000ms, 0675ms total)
T2040 000:770 JLINK_SetResetType(JLINKARM_RESET_TYPE_NORMAL)  returns JLINKARM_RESET_TYPE_NORMAL (0000ms, 0675ms total)
T2040 000:770 JLINK_Reset() -- CPU is running -- CPU_WriteMem(4 bytes @ 0xE000EDF0) -- CPU is running -- CPU_WriteMem(4 bytes @ 0xE000EDFC) -- CPU is running -- CPU_WriteMem(4 bytes @ 0xE000ED0C) -- CPU is running -- CPU_ReadMem(4 bytes @ 0xE000EDF0) -- CPU is running -- CPU_ReadMem(4 bytes @ 0xE000EDF0) -- CPU is running -- CPU_WriteMem(4 bytes @ 0xE000EDF0) -- CPU is running -- CPU_WriteMem(4 bytes @ 0xE000EDFC) -- CPU is running -- CPU_ReadMem(4 bytes @ 0xE000EDF0) >0x80 JTAG> >0x40 JTAG> >0x30 JTAG>
 >0x40 JTAG> >0x50 JTAG> >0x40 JTAG> -- CPU_WriteMem(4 bytes @ 0xE000EDFC) -- CPU_WriteMem(4 bytes @ 0xE0001028) -- CPU_WriteMem(4 bytes @ 0xE0001038) -- CPU_WriteMem(4 bytes @ 0xE0001048) -- CPU_WriteMem(4 bytes @ 0xE0001058) -- CPU_WriteMem(4 bytes @ 0xE0002000) -- CPU_ReadMem(4 bytes @ 0xE000EDFC) -- CPU_ReadMem(4 bytes @ 0xE0001000) (0033ms, 0708ms total)
T2040 000:803 JLINK_Halt()  returns 0x00 (0000ms, 0708ms total)
T2040 000:803 JLINK_IsHalted()  returns TRUE (0000ms, 0708ms total)
T2040 000:803 JLINK_ReadMemU32(0xE000EDF0, 0x0001 Items, ...) -- CPU_ReadMem(4 bytes @ 0xE000EDF0) - Data: 03 00 03 00  returns 0x01 (0001ms, 0709ms total)
T2040 000:804 JLINK_WriteU32(0xE000EDF0, 0xA05F0003) -- CPU_WriteMem(4 bytes @ 0xE000EDF0)  returns 0x00 (0001ms, 0710ms total)
T2040 000:805 JLINK_WriteU32(0xE000EDFC, 0x01000000) -- CPU_WriteMem(4 bytes @ 0xE000EDFC)  returns 0x00 (0001ms, 0711ms total)
T2040 000:822 JLINK_GetHWStatus(...)  returns 0x00 (0000ms, 0711ms total)
T2040 000:835 JLINK_GetNumBPUnits(Type = 0xFFFFFF00)  returns 0x06 (0000ms, 0711ms total)
T2040 000:835 JLINK_GetNumBPUnits(Type = 0xF0)  returns 0x2000 (0000ms, 0711ms total)
T2040 000:835 JLINK_GetNumWPUnits()  returns 0x04 (0000ms, 0711ms total)
T2040 000:843 JLINK_GetSpeed()  returns 0x3A98 (0000ms, 0711ms total)
T2040 000:851 JLINK_ReadMemU32(0xE000E004, 0x0001 Items, ...) -- CPU_ReadMem(4 bytes @ 0xE000E004) - Data: 01 00 00 00  returns 0x01 (0000ms, 0711ms total)
T2040 000:851 JLINK_ReadMemU32(0xE000E004, 0x0001 Items, ...) -- CPU_ReadMem(4 bytes @ 0xE000E004) - Data: 01 00 00 00  returns 0x01 (0001ms, 0712ms total)
T2040 000:852 JLINK_WriteMem(0xE0001000, 0x001C Bytes, ...) - Data: 01 00 00 00 00 00 00 00 00 00 00 00 00 00 00 00 ... -- CPU_WriteMem(28 bytes @ 0xE0001000)  returns 0x1C (0001ms, 0713ms total)
T2040 000:853 JLINK_ReadMem (0xE0001000, 0x001C Bytes, ...) -- CPU_ReadMem(28 bytes @ 0xE0001000) - Data: 01 00 00 40 00 00 00 00 00 00 00 00 00 00 00 00 ...  returns 0x00 (0001ms, 0714ms total)
T2040 000:854 JLINK_Halt()  returns 0x00 (0000ms, 0714ms total)
T2040 000:854 JLINK_IsHalted()  returns TRUE (0000ms, 0714ms total)
T2040 000:857 JLINK_WriteMem(0x20000000, 0x0164 Bytes, ...) - Data: 00 BE 0A E0 0D 78 2D 06 68 40 08 24 40 00 00 D3 ... -- CPU_WriteMem(356 bytes @ 0x20000000)  returns 0x164 (0002ms, 0716ms total)
T2040 000:859 JLINK_WriteReg(R0, 0x08000000)  returns 0x00 (0000ms, 0716ms total)
T2040 000:859 JLINK_WriteReg(R1, 0x007A1200)  returns 0x00 (0000ms, 0716ms total)
T2040 000:859 JLINK_WriteReg(R2, 0x00000001)  returns 0x00 (0000ms, 0716ms total)
T2040 000:859 JLINK_WriteReg(R3, 0x00000000)  returns 0x00 (0000ms, 0716ms total)
T2040 000:859 JLINK_WriteReg(R4, 0x00000000)  returns 0x00 (0000ms, 0716ms total)
T2040 000:859 JLINK_WriteReg(R5, 0x00000000)  returns 0x00 (0000ms, 0716ms total)
T2040 000:859 JLINK_WriteReg(R6, 0x00000000)  returns 0x00 (0000ms, 0716ms total)
T2040 000:859 JLINK_WriteReg(R7, 0x00000000)  returns 0x00 (0000ms, 0716ms total)
T2040 000:859 JLINK_WriteReg(R8, 0x00000000)  returns 0x00 (0000ms, 0716ms total)
T2040 000:859 JLINK_WriteReg(R9, 0x20000160)  returns 0x00 (0000ms, 0716ms total)
T2040 000:859 JLINK_WriteReg(R10, 0x00000000)  returns 0x00 (0000ms, 0716ms total)
T2040 000:859 JLINK_WriteReg(R11, 0x00000000)  returns 0x00 (0000ms, 0716ms total)
T2040 000:859 JLINK_WriteReg(R12, 0x00000000)  returns 0x00 (0000ms, 0716ms total)
T2040 000:859 JLINK_WriteReg(R13 (SP), 0x20000800)  returns 0x00 (0000ms, 0716ms total)
T2040 000:859 JLINK_WriteReg(R14, 0x20000001)  returns 0x00 (0000ms, 0716ms total)
T2040 000:859 JLINK_WriteReg(R15 (PC), 0x20000038)  returns 0x00 (0000ms, 0716ms total)
T2040 000:859 JLINK_WriteReg(XPSR, 0x01000000)  returns 0x00 (0000ms, 0716ms total)
T2040 000:859 JLINK_WriteReg(MSP, 0x20000800)  returns 0x00 (0000ms, 0716ms total)
T2040 000:859 JLINK_WriteReg(PSP, 0x20000800)  returns 0x00 (0000ms, 0716ms total)
T2040 000:859 JLINK_WriteReg(CFBP, 0x00000000)  returns 0x00 (0000ms, 0716ms total)
T2040 000:859 JLINK_SetBPEx(Addr = 0x20000000, Type = 0xFFFFFFF2) -- CPU_ReadMem(2 bytes @ 0x20000000)  returns 0x00000001 (0001ms, 0717ms total)
T2040 000:860 JLINK_Go() -- CPU_WriteMem(2 bytes @ 0x20000000) -- CPU_WriteMem(4 bytes @ 0xE0002008) -- CPU_WriteMem(4 bytes @ 0xE000200C) -- CPU_WriteMem(4 bytes @ 0xE0002010) -- CPU_WriteMem(4 bytes @ 0xE0002014) -- CPU_WriteMem(4 bytes @ 0xE0002018) -- CPU_WriteMem(4 bytes @ 0xE000201C) -- CPU_WriteMem(4 bytes @ 0xE0001004) (0005ms, 0722ms total)
T2040 000:865 JLINK_IsHalted() -- CPU_ReadMem(2 bytes @ 0x20000000)  returns TRUE (0003ms, 0725ms total)
T2040 000:868 JLINK_ReadReg(R15 (PC))  returns 0x20000000 (0000ms, 0722ms total)
T2040 000:868 JLINK_ClrBPEx(BPHandle = 0x00000001)  returns 0x00 (0000ms, 0722ms total)
T2040 000:868 JLINK_ReadReg(R0)  returns 0x00000000 (0000ms, 0722ms total)
T2040 000:868 JLINK_WriteReg(R0, 0x08000000)  returns 0x00 (0000ms, 0722ms total)
T2040 000:868 JLINK_WriteReg(R1, 0x007A1200)  returns 0x00 (0000ms, 0722ms total)
T2040 000:868 JLINK_WriteReg(R2, 0x00000001)  returns 0x00 (0000ms, 0722ms total)
T2040 000:868 JLINK_WriteReg(R3, 0x00000000)  returns 0x00 (0000ms, 0722ms total)
T2040 000:868 JLINK_WriteReg(R4, 0x00000000)  returns 0x00 (0000ms, 0722ms total)
T2040 000:868 JLINK_WriteReg(R5, 0x00000000)  returns 0x00 (0000ms, 0722ms total)
T2040 000:868 JLINK_WriteReg(R6, 0x00000000)  returns 0x00 (0000ms, 0722ms total)
T2040 000:868 JLINK_WriteReg(R7, 0x00000000)  returns 0x00 (0000ms, 0722ms total)
T2040 000:868 JLINK_WriteReg(R8, 0x00000000)  returns 0x00 (0000ms, 0722ms total)
T2040 000:868 JLINK_WriteReg(R9, 0x20000160)  returns 0x00 (0000ms, 0722ms total)
T2040 000:868 JLINK_WriteReg(R10, 0x00000000)  returns 0x00 (0000ms, 0722ms total)
T2040 000:868 JLINK_WriteReg(R11, 0x00000000)  returns 0x00 (0000ms, 0722ms total)
T2040 000:868 JLINK_WriteReg(R12, 0x00000000)  returns 0x00 (0000ms, 0722ms total)
T2040 000:868 JLINK_WriteReg(R13 (SP), 0x20000800)  returns 0x00 (0000ms, 0722ms total)
T2040 000:868 JLINK_WriteReg(R14, 0x20000001)  returns 0x00 (0000ms, 0722ms total)
T2040 000:868 JLINK_WriteReg(R15 (PC), 0x2000007C)  returns 0x00 (0000ms, 0722ms total)
T2040 000:868 JLINK_WriteReg(XPSR, 0x01000000)  returns 0x00 (0000ms, 0722ms total)
T2040 000:868 JLINK_WriteReg(MSP, 0x20000800)  returns 0x00 (0000ms, 0722ms total)
T2040 000:868 JLINK_WriteReg(PSP, 0x20000800)  returns 0x00 (0000ms, 0722ms total)
T2040 000:868 JLINK_WriteReg(CFBP, 0x00000000)  returns 0x00 (0000ms, 0722ms total)
T2040 000:868 JLINK_SetBPEx(Addr = 0x20000000, Type = 0xFFFFFFF2)  returns 0x00000002 (0000ms, 0722ms total)
T2040 000:868 JLINK_Go() (0002ms, 0724ms total)
T2040 000:870 JLINK_IsHalted()  returns FALSE (0001ms, 0725ms total)
T2040 000:896 JLINK_IsHalted() -- CPU_ReadMem(2 bytes @ 0x20000000)  returns TRUE (0003ms, 0727ms total)
T2040 000:899 JLINK_ReadReg(R15 (PC))  returns 0x20000000 (0000ms, 0724ms total)
T2040 000:899 JLINK_ClrBPEx(BPHandle = 0x00000002)  returns 0x00 (0000ms, 0724ms total)
T2040 000:899 JLINK_ReadReg(R0)  returns 0x00000000 (0000ms, 0724ms total)
T2040 000:952 JLINK_WriteReg(R0, 0x00000001)  returns 0x00 (0000ms, 0724ms total)
T2040 000:952 JLINK_WriteReg(R1, 0x007A1200)  returns 0x00 (0000ms, 0724ms total)
T2040 000:952 JLINK_WriteReg(R2, 0x00000001)  returns 0x00 (0000ms, 0724ms total)
T2040 000:952 JLINK_WriteReg(R3, 0x00000000)  returns 0x00 (0000ms, 0724ms total)
T2040 000:952 JLINK_WriteReg(R4, 0x00000000)  returns 0x00 (0000ms, 0724ms total)
T2040 000:952 JLINK_WriteReg(R5, 0x00000000)  returns 0x00 (0000ms, 0724ms total)
T2040 000:952 JLINK_WriteReg(R6, 0x00000000)  returns 0x00 (0000ms, 0724ms total)
T2040 000:952 JLINK_WriteReg(R7, 0x00000000)  returns 0x00 (0000ms, 0724ms total)
T2040 000:952 JLINK_WriteReg(R8, 0x00000000)  returns 0x00 (0000ms, 0724ms total)
T2040 000:952 JLINK_WriteReg(R9, 0x20000160)  returns 0x00 (0000ms, 0724ms total)
T2040 000:952 JLINK_WriteReg(R10, 0x00000000)  returns 0x00 (0000ms, 0724ms total)
T2040 000:952 JLINK_WriteReg(R11, 0x00000000)  returns 0x00 (0000ms, 0724ms total)
T2040 000:952 JLINK_WriteReg(R12, 0x00000000)  returns 0x00 (0000ms, 0724ms total)
T2040 000:952 JLINK_WriteReg(R13 (SP), 0x20000800)  returns 0x00 (0000ms, 0724ms total)
T2040 000:952 JLINK_WriteReg(R14, 0x20000001)  returns 0x00 (0000ms, 0724ms total)
T2040 000:952 JLINK_WriteReg(R15 (PC), 0x2000006A)  returns 0x00 (0000ms, 0724ms total)
T2040 000:952 JLINK_WriteReg(XPSR, 0x01000000)  returns 0x00 (0000ms, 0724ms total)
T2040 000:952 JLINK_WriteReg(MSP, 0x20000800)  returns 0x00 (0000ms, 0724ms total)
T2040 000:952 JLINK_WriteReg(PSP, 0x20000800)  returns 0x00 (0000ms, 0724ms total)
T2040 000:952 JLINK_WriteReg(CFBP, 0x00000000)  returns 0x00 (0000ms, 0724ms total)
T2040 000:952 JLINK_SetBPEx(Addr = 0x20000000, Type = 0xFFFFFFF2)  returns 0x00000003 (0000ms, 0724ms total)
T2040 000:952 JLINK_Go() (0002ms, 0726ms total)
T2040 000:954 JLINK_IsHalted() -- CPU_ReadMem(2 bytes @ 0x20000000)  returns TRUE (0003ms, 0729ms total)
T2040 000:957 JLINK_ReadReg(R15 (PC))  returns 0x20000000 (0000ms, 0726ms total)
T2040 000:957 JLINK_ClrBPEx(BPHandle = 0x00000003)  returns 0x00 (0000ms, 0726ms total)
T2040 000:957 JLINK_ReadReg(R0)  returns 0x00000000 (0000ms, 0726ms total)
T2040 000:963 JLINK_WriteMem(0x20000000, 0x0164 Bytes, ...) - Data: 00 BE 0A E0 0D 78 2D 06 68 40 08 24 40 00 00 D3 ... -- CPU_WriteMem(356 bytes @ 0x20000000)  returns 0x164 (0001ms, 0727ms total)
T2040 000:964 JLINK_WriteReg(R0, 0x08000000)  returns 0x00 (0001ms, 0728ms total)
T2040 000:965 JLINK_WriteReg(R1, 0x007A1200)  returns 0x00 (0000ms, 0728ms total)
T2040 000:965 JLINK_WriteReg(R2, 0x00000002)  returns 0x00 (0000ms, 0728ms total)
T2040 000:965 JLINK_WriteReg(R3, 0x00000000)  returns 0x00 (0000ms, 0728ms total)
T2040 000:965 JLINK_WriteReg(R4, 0x00000000)  returns 0x00 (0000ms, 0728ms total)
T2040 000:965 JLINK_WriteReg(R5, 0x00000000)  returns 0x00 (0000ms, 0728ms total)
T2040 000:965 JLINK_WriteReg(R6, 0x00000000)  returns 0x00 (0000ms, 0728ms total)
T2040 000:965 JLINK_WriteReg(R7, 0x00000000)  returns 0x00 (0000ms, 0728ms total)
T2040 000:965 JLINK_WriteReg(R8, 0x00000000)  returns 0x00 (0000ms, 0728ms total)
T2040 000:965 JLINK_WriteReg(R9, 0x20000160)  returns 0x00 (0000ms, 0728ms total)
T2040 000:965 JLINK_WriteReg(R10, 0x00000000)  returns 0x00 (0000ms, 0728ms total)
T2040 000:965 JLINK_WriteReg(R11, 0x00000000)  returns 0x00 (0000ms, 0728ms total)
T2040 000:965 JLINK_WriteReg(R12, 0x00000000)  returns 0x00 (0000ms, 0728ms total)
T2040 000:965 JLINK_WriteReg(R13 (SP), 0x20000800)  returns 0x00 (0000ms, 0728ms total)
T2040 000:965 JLINK_WriteReg(R14, 0x20000001)  returns 0x00 (0000ms, 0728ms total)
T2040 000:965 JLINK_WriteReg(R15 (PC), 0x20000038)  returns 0x00 (0000ms, 0728ms total)
T2040 000:965 JLINK_WriteReg(XPSR, 0x01000000)  returns 0x00 (0000ms, 0728ms total)
T2040 000:965 JLINK_WriteReg(MSP, 0x20000800)  returns 0x00 (0000ms, 0728ms total)
T2040 000:965 JLINK_WriteReg(PSP, 0x20000800)  returns 0x00 (0000ms, 0728ms total)
T2040 000:965 JLINK_WriteReg(CFBP, 0x00000000)  returns 0x00 (0000ms, 0728ms total)
T2040 000:965 JLINK_SetBPEx(Addr = 0x20000000, Type = 0xFFFFFFF2) -- CPU_ReadMem(2 bytes @ 0x20000000)  returns 0x00000004 (0001ms, 0729ms total)
T2040 000:966 JLINK_Go() -- CPU_WriteMem(2 bytes @ 0x20000000) (0003ms, 0732ms total)
T2040 000:969 JLINK_IsHalted() -- CPU_ReadMem(2 bytes @ 0x20000000)  returns TRUE (0002ms, 0734ms total)
T2040 000:971 JLINK_ReadReg(R15 (PC))  returns 0x20000000 (0000ms, 0732ms total)
T2040 000:971 JLINK_ClrBPEx(BPHandle = 0x00000004)  returns 0x00 (0000ms, 0732ms total)
T2040 000:971 JLINK_ReadReg(R0)  returns 0x00000000 (0000ms, 0732ms total)
T2040 000:972 JLINK_WriteMem(0x20000164, 0x0400 Bytes, ...) - Data: 70 08 00 20 D9 34 00 08 E1 34 00 08 E3 34 00 08 ... -- CPU_WriteMem(1024 bytes @ 0x20000164)  returns 0x400 (0002ms, 0734ms total)
T2040 000:974 JLINK_WriteReg(R0, 0x08000000)  returns 0x00 (0000ms, 0734ms total)
T2040 000:974 JLINK_WriteReg(R1, 0x00000400)  returns 0x00 (0000ms, 0734ms total)
T2040 000:974 JLINK_WriteReg(R2, 0x20000164)  returns 0x00 (0000ms, 0734ms total)
T2040 000:974 JLINK_WriteReg(R3, 0x00000000)  returns 0x00 (0000ms, 0734ms total)
T2040 000:974 JLINK_WriteReg(R4, 0x00000000)  returns 0x00 (0000ms, 0734ms total)
T2040 000:974 JLINK_WriteReg(R5, 0x00000000)  returns 0x00 (0000ms, 0734ms total)
T2040 000:974 JLINK_WriteReg(R6, 0x00000000)  returns 0x00 (0000ms, 0734ms total)
T2040 000:974 JLINK_WriteReg(R7, 0x00000000)  returns 0x00 (0000ms, 0734ms total)
T2040 000:974 JLINK_WriteReg(R8, 0x00000000)  returns 0x00 (0000ms, 0734ms total)
T2040 000:974 JLINK_WriteReg(R9, 0x20000160)  returns 0x00 (0000ms, 0734ms total)
T2040 000:974 JLINK_WriteReg(R10, 0x00000000)  returns 0x00 (0000ms, 0734ms total)
T2040 000:974 JLINK_WriteReg(R11, 0x00000000)  returns 0x00 (0000ms, 0734ms total)
T2040 000:974 JLINK_WriteReg(R12, 0x00000000)  returns 0x00 (0000ms, 0734ms total)
T2040 000:974 JLINK_WriteReg(R13 (SP), 0x20000800)  returns 0x00 (0000ms, 0734ms total)
T2040 000:974 JLINK_WriteReg(R14, 0x20000001)  returns 0x00 (0000ms, 0734ms total)
T2040 000:974 JLINK_WriteReg(R15 (PC), 0x200000F4)  returns 0x00 (0000ms, 0734ms total)
T2040 000:974 JLINK_WriteReg(XPSR, 0x01000000)  returns 0x00 (0000ms, 0734ms total)
T2040 000:974 JLINK_WriteReg(MSP, 0x20000800)  returns 0x00 (0000ms, 0734ms total)
T2040 000:974 JLINK_WriteReg(PSP, 0x20000800)  returns 0x00 (0000ms, 0734ms total)
T2040 000:974 JLINK_WriteReg(CFBP, 0x00000000)  returns 0x00 (0000ms, 0734ms total)
T2040 000:974 JLINK_SetBPEx(Addr = 0x20000000, Type = 0xFFFFFFF2)  returns 0x00000005 (0000ms, 0734ms total)
T2040 000:974 JLINK_Go() (0002ms, 0736ms total)
T2040 000:976 JLINK_IsHalted()  returns FALSE (0001ms, 0737ms total)
T2040 000:981 JLINK_IsHalted()  returns FALSE (0000ms, 0736ms total)
T2040 000:982 JLINK_IsHalted()  returns FALSE (0000ms, 0736ms total)
T2040 000:983 JLINK_IsHalted()  returns FALSE (0000ms, 0736ms total)
T2040 000:987 JLINK_IsHalted()  returns FALSE (0000ms, 0736ms total)
T2040 000:988 JLINK_IsHalted()  returns FALSE (0000ms, 0736ms total)
T2040 000:989 JLINK_IsHalted()  returns FALSE (0000ms, 0736ms total)
T2040 000:990 JLINK_IsHalted()  returns FALSE (0000ms, 0736ms total)
T2040 000:991 JLINK_IsHalted()  returns FALSE (0000ms, 0736ms total)
T2040 000:992 JLINK_IsHalted()  returns FALSE (0000ms, 0736ms total)
T2040 000:993 JLINK_IsHalted()  returns FALSE (0000ms, 0736ms total)
T2040 000:994 JLINK_IsHalted()  returns FALSE (0000ms, 0736ms total)
T2040 000:995 JLINK_IsHalted()  returns FALSE (0000ms, 0736ms total)
T2040 000:996 JLINK_IsHalted()  returns FALSE (0000ms, 0736ms total)
T2040 000:999 JLINK_IsHalted()  returns FALSE (0000ms, 0736ms total)
T2040 001:000 JLINK_IsHalted()  returns FALSE (0000ms, 0736ms total)
T2040 001:001 JLINK_IsHalted()  returns FALSE (0001ms, 0737ms total)
T2040 001:003 JLINK_IsHalted()  returns FALSE (0000ms, 0736ms total)
T2040 001:004 JLINK_IsHalted()  returns FALSE (0000ms, 0736ms total)
T2040 001:005 JLINK_IsHalted()  returns FALSE (0000ms, 0736ms total)
T2040 001:006 JLINK_IsHalted()  returns FALSE (0000ms, 0736ms total)
T2040 001:007 JLINK_IsHalted() -- CPU_ReadMem(2 bytes @ 0x20000000)  returns TRUE (0002ms, 0738ms total)
T2040 001:009 JLINK_ReadReg(R15 (PC))  returns 0x20000000 (0000ms, 0736ms total)
T2040 001:009 JLINK_ClrBPEx(BPHandle = 0x00000005)  returns 0x00 (0000ms, 0736ms total)
T2040 001:009 JLINK_ReadReg(R0)  returns 0x00000000 (0000ms, 0736ms total)
T2040 001:010 JLINK_WriteMem(0x20000164, 0x0400 Bytes, ...) - Data: 10 FA 4F F4 FC 60 00 90 8B 48 40 88 14 38 83 B2 ... -- CPU_WriteMem(1024 bytes @ 0x20000164)  returns 0x400 (0002ms, 0738ms total)
T2040 001:012 JLINK_WriteReg(R0, 0x08000400)  returns 0x00 (0000ms, 0738ms total)
T2040 001:012 JLINK_WriteReg(R1, 0x00000400)  returns 0x00 (0000ms, 0738ms total)
T2040 001:012 JLINK_WriteReg(R2, 0x20000164)  returns 0x00 (0000ms, 0738ms total)
T2040 001:012 JLINK_WriteReg(R3, 0x00000000)  returns 0x00 (0000ms, 0738ms total)
T2040 001:012 JLINK_WriteReg(R4, 0x00000000)  returns 0x00 (0000ms, 0738ms total)
T2040 001:012 JLINK_WriteReg(R5, 0x00000000)  returns 0x00 (0000ms, 0738ms total)
T2040 001:012 JLINK_WriteReg(R6, 0x00000000)  returns 0x00 (0000ms, 0738ms total)
T2040 001:012 JLINK_WriteReg(R7, 0x00000000)  returns 0x00 (0000ms, 0738ms total)
T2040 001:012 JLINK_WriteReg(R8, 0x00000000)  returns 0x00 (0000ms, 0738ms total)
T2040 001:012 JLINK_WriteReg(R9, 0x20000160)  returns 0x00 (0000ms, 0738ms total)
T2040 001:012 JLINK_WriteReg(R10, 0x00000000)  returns 0x00 (0000ms, 0738ms total)
T2040 001:012 JLINK_WriteReg(R11, 0x00000000)  returns 0x00 (0000ms, 0738ms total)
T2040 001:012 JLINK_WriteReg(R12, 0x00000000)  returns 0x00 (0000ms, 0738ms total)
T2040 001:012 JLINK_WriteReg(R13 (SP), 0x20000800)  returns 0x00 (0000ms, 0738ms total)
T2040 001:012 JLINK_WriteReg(R14, 0x20000001)  returns 0x00 (0000ms, 0738ms total)
T2040 001:012 JLINK_WriteReg(R15 (PC), 0x200000F4)  returns 0x00 (0000ms, 0738ms total)
T2040 001:012 JLINK_WriteReg(XPSR, 0x01000000)  returns 0x00 (0000ms, 0738ms total)
T2040 001:012 JLINK_WriteReg(MSP, 0x20000800)  returns 0x00 (0000ms, 0738ms total)
T2040 001:012 JLINK_WriteReg(PSP, 0x20000800)  returns 0x00 (0000ms, 0738ms total)
T2040 001:013 JLINK_WriteReg(CFBP, 0x00000000)  returns 0x00 (0000ms, 0739ms total)
T2040 001:013 JLINK_SetBPEx(Addr = 0x20000000, Type = 0xFFFFFFF2)  returns 0x00000006 (0000ms, 0739ms total)
T2040 001:013 JLINK_Go() (0001ms, 0740ms total)
T2040 001:014 JLINK_IsHalted()  returns FALSE (0001ms, 0741ms total)
T2040 001:017 JLINK_IsHalted()  returns FALSE (0000ms, 0740ms total)
T2040 001:018 JLINK_IsHalted()  returns FALSE (0000ms, 0740ms total)
T2040 001:019 JLINK_IsHalted()  returns FALSE (0000ms, 0740ms total)
T2040 001:020 JLINK_IsHalted()  returns FALSE (0000ms, 0740ms total)
T2040 001:021 JLINK_IsHalted()  returns FALSE (0000ms, 0740ms total)
T2040 001:022 JLINK_IsHalted()  returns FALSE (0000ms, 0740ms total)
T2040 001:023 JLINK_IsHalted()  returns FALSE (0000ms, 0740ms total)
T2040 001:024 JLINK_IsHalted()  returns FALSE (0000ms, 0740ms total)
T2040 001:025 JLINK_IsHalted()  returns FALSE (0000ms, 0740ms total)
T2040 001:026 JLINK_IsHalted()  returns FALSE (0000ms, 0740ms total)
T2040 001:027 JLINK_IsHalted()  returns FALSE (0000ms, 0740ms total)
T2040 001:028 JLINK_IsHalted()  returns FALSE (0000ms, 0740ms total)
T2040 001:029 JLINK_IsHalted()  returns FALSE (0000ms, 0740ms total)
T2040 001:031 JLINK_IsHalted()  returns FALSE (0000ms, 0740ms total)
T2040 001:032 JLINK_IsHalted()  returns FALSE (0000ms, 0740ms total)
T2040 001:033 JLINK_IsHalted()  returns FALSE (0000ms, 0740ms total)
T2040 001:034 JLINK_IsHalted()  returns FALSE (0000ms, 0740ms total)
T2040 001:035 JLINK_IsHalted()  returns FALSE (0000ms, 0740ms total)
T2040 001:036 JLINK_IsHalted()  returns FALSE (0000ms, 0740ms total)
T2040 001:037 JLINK_IsHalted()  returns FALSE (0000ms, 0740ms total)
T2040 001:038 JLINK_IsHalted()  returns FALSE (0000ms, 0740ms total)
T2040 001:039 JLINK_IsHalted()  returns FALSE (0000ms, 0740ms total)
T2040 001:040 JLINK_IsHalted()  returns FALSE (0000ms, 0740ms total)
T2040 001:041 JLINK_IsHalted()  returns FALSE (0000ms, 0740ms total)
T2040 001:042 JLINK_IsHalted()  returns FALSE (0000ms, 0740ms total)
T2040 001:043 JLINK_IsHalted()  returns FALSE (0000ms, 0740ms total)
T2040 001:044 JLINK_IsHalted()  returns FALSE (0000ms, 0740ms total)
T2040 001:045 JLINK_IsHalted() -- CPU_ReadMem(2 bytes @ 0x20000000)  returns TRUE (0002ms, 0742ms total)
T2040 001:047 JLINK_ReadReg(R15 (PC))  returns 0x20000000 (0000ms, 0740ms total)
T2040 001:047 JLINK_ClrBPEx(BPHandle = 0x00000006)  returns 0x00 (0000ms, 0740ms total)
T2040 001:047 JLINK_ReadReg(R0)  returns 0x00000000 (0000ms, 0740ms total)
T2040 001:049 JLINK_WriteMem(0x20000164, 0x0400 Bytes, ...) - Data: FF FA 00 BF 1F E0 00 20 C9 4B 00 90 5D 88 05 EB ... -- CPU_WriteMem(1024 bytes @ 0x20000164)  returns 0x400 (0002ms, 0742ms total)
T2040 001:051 JLINK_WriteReg(R0, 0x08000800)  returns 0x00 (0000ms, 0742ms total)
T2040 001:051 JLINK_WriteReg(R1, 0x00000400)  returns 0x00 (0000ms, 0742ms total)
T2040 001:051 JLINK_WriteReg(R2, 0x20000164)  returns 0x00 (0000ms, 0742ms total)
T2040 001:051 JLINK_WriteReg(R3, 0x00000000)  returns 0x00 (0000ms, 0742ms total)
T2040 001:051 JLINK_WriteReg(R4, 0x00000000)  returns 0x00 (0000ms, 0742ms total)
T2040 001:051 JLINK_WriteReg(R5, 0x00000000)  returns 0x00 (0000ms, 0742ms total)
T2040 001:052 JLINK_WriteReg(R6, 0x00000000)  returns 0x00 (0000ms, 0742ms total)
T2040 001:052 JLINK_WriteReg(R7, 0x00000000)  returns 0x00 (0000ms, 0742ms total)
T2040 001:052 JLINK_WriteReg(R8, 0x00000000)  returns 0x00 (0000ms, 0742ms total)
T2040 001:052 JLINK_WriteReg(R9, 0x20000160)  returns 0x00 (0000ms, 0742ms total)
T2040 001:052 JLINK_WriteReg(R10, 0x00000000)  returns 0x00 (0000ms, 0742ms total)
T2040 001:052 JLINK_WriteReg(R11, 0x00000000)  returns 0x00 (0000ms, 0742ms total)
T2040 001:052 JLINK_WriteReg(R12, 0x00000000)  returns 0x00 (0000ms, 0742ms total)
T2040 001:052 JLINK_WriteReg(R13 (SP), 0x20000800)  returns 0x00 (0000ms, 0742ms total)
T2040 001:052 JLINK_WriteReg(R14, 0x20000001)  returns 0x00 (0000ms, 0742ms total)
T2040 001:052 JLINK_WriteReg(R15 (PC), 0x200000F4)  returns 0x00 (0000ms, 0742ms total)
T2040 001:052 JLINK_WriteReg(XPSR, 0x01000000)  returns 0x00 (0000ms, 0742ms total)
T2040 001:052 JLINK_WriteReg(MSP, 0x20000800)  returns 0x00 (0000ms, 0742ms total)
T2040 001:052 JLINK_WriteReg(PSP, 0x20000800)  returns 0x00 (0000ms, 0742ms total)
T2040 001:052 JLINK_WriteReg(CFBP, 0x00000000)  returns 0x00 (0000ms, 0742ms total)
T2040 001:052 JLINK_SetBPEx(Addr = 0x20000000, Type = 0xFFFFFFF2)  returns 0x00000007 (0000ms, 0742ms total)
T2040 001:052 JLINK_Go() (0001ms, 0743ms total)
T2040 001:053 JLINK_IsHalted()  returns FALSE (0001ms, 0744ms total)
T2040 001:055 JLINK_IsHalted()  returns FALSE (0000ms, 0743ms total)
T2040 001:056 JLINK_IsHalted()  returns FALSE (0000ms, 0743ms total)
T2040 001:057 JLINK_IsHalted()  returns FALSE (0000ms, 0743ms total)
T2040 001:058 JLINK_IsHalted()  returns FALSE (0000ms, 0743ms total)
T2040 001:059 JLINK_IsHalted()  returns FALSE (0000ms, 0743ms total)
T2040 001:060 JLINK_IsHalted()  returns FALSE (0000ms, 0743ms total)
T2040 001:061 JLINK_IsHalted()  returns FALSE (0000ms, 0743ms total)
T2040 001:062 JLINK_IsHalted()  returns FALSE (0000ms, 0743ms total)
T2040 001:063 JLINK_IsHalted()  returns FALSE (0000ms, 0743ms total)
T2040 001:064 JLINK_IsHalted()  returns FALSE (0000ms, 0743ms total)
T2040 001:065 JLINK_IsHalted()  returns FALSE (0000ms, 0743ms total)
T2040 001:066 JLINK_IsHalted()  returns FALSE (0000ms, 0743ms total)
T2040 001:067 JLINK_IsHalted()  returns FALSE (0000ms, 0743ms total)
T2040 001:068 JLINK_IsHalted()  returns FALSE (0000ms, 0743ms total)
T2040 001:069 JLINK_IsHalted()  returns FALSE (0000ms, 0743ms total)
T2040 001:070 JLINK_IsHalted()  returns FALSE (0000ms, 0743ms total)
T2040 001:071 JLINK_IsHalted()  returns FALSE (0000ms, 0743ms total)
T2040 001:072 JLINK_IsHalted()  returns FALSE (0000ms, 0743ms total)
T2040 001:073 JLINK_IsHalted()  returns FALSE (0000ms, 0743ms total)
T2040 001:074 JLINK_IsHalted()  returns FALSE (0000ms, 0743ms total)
T2040 001:078 JLINK_IsHalted()  returns FALSE (0000ms, 0743ms total)
T2040 001:079 JLINK_IsHalted()  returns FALSE (0000ms, 0743ms total)
T2040 001:080 JLINK_IsHalted()  returns FALSE (0000ms, 0743ms total)
T2040 001:081 JLINK_IsHalted()  returns FALSE (0000ms, 0743ms total)
T2040 001:082 JLINK_IsHalted()  returns FALSE (0000ms, 0743ms total)
T2040 001:083 JLINK_IsHalted()  returns FALSE (0000ms, 0743ms total)
T2040 001:084 JLINK_IsHalted() -- CPU_ReadMem(2 bytes @ 0x20000000)  returns TRUE (0002ms, 0745ms total)
T2040 001:086 JLINK_ReadReg(R15 (PC))  returns 0x20000000 (0000ms, 0743ms total)
T2040 001:086 JLINK_ClrBPEx(BPHandle = 0x00000007)  returns 0x00 (0000ms, 0743ms total)
T2040 001:086 JLINK_ReadReg(R0)  returns 0x00000000 (0000ms, 0743ms total)
T2040 001:087 JLINK_WriteMem(0x20000164, 0x0400 Bytes, ...) - Data: 44 45 46 47 48 49 4A 4B 4C 4D 4E 4F 50 51 52 53 ... -- CPU_WriteMem(1024 bytes @ 0x20000164)  returns 0x400 (0002ms, 0745ms total)
T2040 001:089 JLINK_WriteReg(R0, 0x08000C00)  returns 0x00 (0000ms, 0745ms total)
T2040 001:089 JLINK_WriteReg(R1, 0x00000400)  returns 0x00 (0000ms, 0745ms total)
T2040 001:089 JLINK_WriteReg(R2, 0x20000164)  returns 0x00 (0000ms, 0745ms total)
T2040 001:089 JLINK_WriteReg(R3, 0x00000000)  returns 0x00 (0000ms, 0745ms total)
T2040 001:089 JLINK_WriteReg(R4, 0x00000000)  returns 0x00 (0000ms, 0745ms total)
T2040 001:089 JLINK_WriteReg(R5, 0x00000000)  returns 0x00 (0000ms, 0745ms total)
T2040 001:089 JLINK_WriteReg(R6, 0x00000000)  returns 0x00 (0000ms, 0745ms total)
T2040 001:089 JLINK_WriteReg(R7, 0x00000000)  returns 0x00 (0000ms, 0745ms total)
T2040 001:089 JLINK_WriteReg(R8, 0x00000000)  returns 0x00 (0000ms, 0745ms total)
T2040 001:089 JLINK_WriteReg(R9, 0x20000160)  returns 0x00 (0000ms, 0745ms total)
T2040 001:089 JLINK_WriteReg(R10, 0x00000000)  returns 0x00 (0000ms, 0745ms total)
T2040 001:089 JLINK_WriteReg(R11, 0x00000000)  returns 0x00 (0000ms, 0745ms total)
T2040 001:089 JLINK_WriteReg(R12, 0x00000000)  returns 0x00 (0000ms, 0745ms total)
T2040 001:089 JLINK_WriteReg(R13 (SP), 0x20000800)  returns 0x00 (0000ms, 0745ms total)
T2040 001:089 JLINK_WriteReg(R14, 0x20000001)  returns 0x00 (0000ms, 0745ms total)
T2040 001:089 JLINK_WriteReg(R15 (PC), 0x200000F4)  returns 0x00 (0000ms, 0745ms total)
T2040 001:090 JLINK_WriteReg(XPSR, 0x01000000)  returns 0x00 (0000ms, 0745ms total)
T2040 001:090 JLINK_WriteReg(MSP, 0x20000800)  returns 0x00 (0000ms, 0745ms total)
T2040 001:090 JLINK_WriteReg(PSP, 0x20000800)  returns 0x00 (0000ms, 0745ms total)
T2040 001:090 JLINK_WriteReg(CFBP, 0x00000000)  returns 0x00 (0000ms, 0745ms total)
T2040 001:090 JLINK_SetBPEx(Addr = 0x20000000, Type = 0xFFFFFFF2)  returns 0x00000008 (0000ms, 0745ms total)
T2040 001:090 JLINK_Go() (0001ms, 0746ms total)
T2040 001:091 JLINK_IsHalted()  returns FALSE (0001ms, 0747ms total)
T2040 001:093 JLINK_IsHalted()  returns FALSE (0000ms, 0746ms total)
T2040 001:094 JLINK_IsHalted()  returns FALSE (0000ms, 0746ms total)
T2040 001:095 JLINK_IsHalted()  returns FALSE (0000ms, 0746ms total)
T2040 001:096 JLINK_IsHalted()  returns FALSE (0000ms, 0746ms total)
T2040 001:097 JLINK_IsHalted()  returns FALSE (0000ms, 0746ms total)
T2040 001:098 JLINK_IsHalted()  returns FALSE (0000ms, 0746ms total)
T2040 001:099 JLINK_IsHalted()  returns FALSE (0000ms, 0746ms total)
T2040 001:100 JLINK_IsHalted()  returns FALSE (0000ms, 0746ms total)
T2040 001:101 JLINK_IsHalted()  returns FALSE (0000ms, 0746ms total)
T2040 001:102 JLINK_IsHalted()  returns FALSE (0000ms, 0746ms total)
T2040 001:103 JLINK_IsHalted()  returns FALSE (0000ms, 0746ms total)
T2040 001:104 JLINK_IsHalted()  returns FALSE (0000ms, 0746ms total)
T2040 001:105 JLINK_IsHalted()  returns FALSE (0000ms, 0746ms total)
T2040 001:106 JLINK_IsHalted()  returns FALSE (0000ms, 0746ms total)
T2040 001:107 JLINK_IsHalted()  returns FALSE (0000ms, 0746ms total)
T2040 001:108 JLINK_IsHalted()  returns FALSE (0000ms, 0746ms total)
T2040 001:109 JLINK_IsHalted()  returns FALSE (0000ms, 0746ms total)
T2040 001:110 JLINK_IsHalted()  returns FALSE (0000ms, 0746ms total)
T2040 001:111 JLINK_IsHalted()  returns FALSE (0000ms, 0746ms total)
T2040 001:115 JLINK_IsHalted()  returns FALSE (0000ms, 0746ms total)
T2040 001:116 JLINK_IsHalted()  returns FALSE (0000ms, 0746ms total)
T2040 001:117 JLINK_IsHalted()  returns FALSE (0000ms, 0746ms total)
T2040 001:118 JLINK_IsHalted()  returns FALSE (0000ms, 0746ms total)
T2040 001:119 JLINK_IsHalted()  returns FALSE (0000ms, 0746ms total)
T2040 001:120 JLINK_IsHalted()  returns FALSE (0000ms, 0746ms total)
T2040 001:121 JLINK_IsHalted()  returns FALSE (0000ms, 0746ms total)
T2040 001:123 JLINK_IsHalted() -- CPU_ReadMem(2 bytes @ 0x20000000)  returns TRUE (0002ms, 0748ms total)
T2040 001:125 JLINK_ReadReg(R15 (PC))  returns 0x20000000 (0000ms, 0746ms total)
T2040 001:125 JLINK_ClrBPEx(BPHandle = 0x00000008)  returns 0x00 (0000ms, 0746ms total)
T2040 001:125 JLINK_ReadReg(R0)  returns 0x00000000 (0000ms, 0746ms total)
T2040 001:126 JLINK_WriteMem(0x20000164, 0x0400 Bytes, ...) - Data: 82 46 17 46 98 46 DD F8 38 B0 00 24 45 46 4F EA ... -- CPU_WriteMem(1024 bytes @ 0x20000164)  returns 0x400 (0002ms, 0748ms total)
T2040 001:128 JLINK_WriteReg(R0, 0x08001000)  returns 0x00 (0000ms, 0748ms total)
T2040 001:128 JLINK_WriteReg(R1, 0x00000400)  returns 0x00 (0000ms, 0748ms total)
T2040 001:128 JLINK_WriteReg(R2, 0x20000164)  returns 0x00 (0000ms, 0748ms total)
T2040 001:128 JLINK_WriteReg(R3, 0x00000000)  returns 0x00 (0000ms, 0748ms total)
T2040 001:128 JLINK_WriteReg(R4, 0x00000000)  returns 0x00 (0000ms, 0748ms total)
T2040 001:128 JLINK_WriteReg(R5, 0x00000000)  returns 0x00 (0000ms, 0748ms total)
T2040 001:128 JLINK_WriteReg(R6, 0x00000000)  returns 0x00 (0000ms, 0748ms total)
T2040 001:128 JLINK_WriteReg(R7, 0x00000000)  returns 0x00 (0000ms, 0748ms total)
T2040 001:128 JLINK_WriteReg(R8, 0x00000000)  returns 0x00 (0000ms, 0748ms total)
T2040 001:128 JLINK_WriteReg(R9, 0x20000160)  returns 0x00 (0000ms, 0748ms total)
T2040 001:128 JLINK_WriteReg(R10, 0x00000000)  returns 0x00 (0000ms, 0748ms total)
T2040 001:128 JLINK_WriteReg(R11, 0x00000000)  returns 0x00 (0000ms, 0748ms total)
T2040 001:128 JLINK_WriteReg(R12, 0x00000000)  returns 0x00 (0000ms, 0748ms total)
T2040 001:128 JLINK_WriteReg(R13 (SP), 0x20000800)  returns 0x00 (0000ms, 0748ms total)
T2040 001:128 JLINK_WriteReg(R14, 0x20000001)  returns 0x00 (0000ms, 0748ms total)
T2040 001:128 JLINK_WriteReg(R15 (PC), 0x200000F4)  returns 0x00 (0000ms, 0748ms total)
T2040 001:128 JLINK_WriteReg(XPSR, 0x01000000)  returns 0x00 (0000ms, 0748ms total)
T2040 001:128 JLINK_WriteReg(MSP, 0x20000800)  returns 0x00 (0000ms, 0748ms total)
T2040 001:128 JLINK_WriteReg(PSP, 0x20000800)  returns 0x00 (0000ms, 0748ms total)
T2040 001:128 JLINK_WriteReg(CFBP, 0x00000000)  returns 0x00 (0001ms, 0749ms total)
T2040 001:129 JLINK_SetBPEx(Addr = 0x20000000, Type = 0xFFFFFFF2)  returns 0x00000009 (0000ms, 0749ms total)
T2040 001:129 JLINK_Go() (0001ms, 0750ms total)
T2040 001:130 JLINK_IsHalted()  returns FALSE (0001ms, 0751ms total)
T2040 001:132 JLINK_IsHalted()  returns FALSE (0000ms, 0750ms total)
T2040 001:133 JLINK_IsHalted()  returns FALSE (0000ms, 0750ms total)
T2040 001:134 JLINK_IsHalted()  returns FALSE (0000ms, 0750ms total)
T2040 001:135 JLINK_IsHalted()  returns FALSE (0000ms, 0750ms total)
T2040 001:136 JLINK_IsHalted()  returns FALSE (0000ms, 0750ms total)
T2040 001:137 JLINK_IsHalted()  returns FALSE (0000ms, 0750ms total)
T2040 001:140 JLINK_IsHalted()  returns FALSE (0000ms, 0750ms total)
T2040 001:141 JLINK_IsHalted()  returns FALSE (0000ms, 0750ms total)
T2040 001:142 JLINK_IsHalted()  returns FALSE (0000ms, 0750ms total)
T2040 001:143 JLINK_IsHalted()  returns FALSE (0000ms, 0750ms total)
T2040 001:144 JLINK_IsHalted()  returns FALSE (0000ms, 0750ms total)
T2040 001:145 JLINK_IsHalted()  returns FALSE (0000ms, 0750ms total)
T2040 001:146 JLINK_IsHalted()  returns FALSE (0000ms, 0750ms total)
T2040 001:147 JLINK_IsHalted()  returns FALSE (0000ms, 0750ms total)
T2040 001:148 JLINK_IsHalted()  returns FALSE (0000ms, 0750ms total)
T2040 001:149 JLINK_IsHalted()  returns FALSE (0000ms, 0750ms total)
T2040 001:150 JLINK_IsHalted()  returns FALSE (0000ms, 0750ms total)
T2040 001:151 JLINK_IsHalted()  returns FALSE (0000ms, 0750ms total)
T2040 001:152 JLINK_IsHalted()  returns FALSE (0000ms, 0750ms total)
T2040 001:153 JLINK_IsHalted()  returns FALSE (0000ms, 0750ms total)
T2040 001:154 JLINK_IsHalted()  returns FALSE (0000ms, 0750ms total)
T2040 001:155 JLINK_IsHalted()  returns FALSE (0000ms, 0750ms total)
T2040 001:156 JLINK_IsHalted()  returns FALSE (0000ms, 0750ms total)
T2040 001:157 JLINK_IsHalted()  returns FALSE (0000ms, 0750ms total)
T2040 001:158 JLINK_IsHalted()  returns FALSE (0000ms, 0750ms total)
T2040 001:159 JLINK_IsHalted()  returns FALSE (0000ms, 0750ms total)
T2040 001:160 JLINK_IsHalted()  returns FALSE (0000ms, 0750ms total)
T2040 001:161 JLINK_IsHalted() -- CPU_ReadMem(2 bytes @ 0x20000000)  returns TRUE (0002ms, 0752ms total)
T2040 001:163 JLINK_ReadReg(R15 (PC))  returns 0x20000000 (0000ms, 0750ms total)
T2040 001:163 JLINK_ClrBPEx(BPHandle = 0x00000009)  returns 0x00 (0000ms, 0750ms total)
T2040 001:163 JLINK_ReadReg(R0)  returns 0x00000000 (0000ms, 0750ms total)
T2040 001:164 JLINK_WriteMem(0x20000164, 0x0400 Bytes, ...) - Data: 9B F8 00 10 88 42 59 D1 04 EB 84 00 00 EB 44 10 ... -- CPU_WriteMem(1024 bytes @ 0x20000164)  returns 0x400 (0002ms, 0752ms total)
T2040 001:166 JLINK_WriteReg(R0, 0x08001400)  returns 0x00 (0000ms, 0752ms total)
T2040 001:166 JLINK_WriteReg(R1, 0x00000400)  returns 0x00 (0000ms, 0752ms total)
T2040 001:166 JLINK_WriteReg(R2, 0x20000164)  returns 0x00 (0000ms, 0752ms total)
T2040 001:166 JLINK_WriteReg(R3, 0x00000000)  returns 0x00 (0000ms, 0752ms total)
T2040 001:166 JLINK_WriteReg(R4, 0x00000000)  returns 0x00 (0000ms, 0752ms total)
T2040 001:166 JLINK_WriteReg(R5, 0x00000000)  returns 0x00 (0000ms, 0752ms total)
T2040 001:166 JLINK_WriteReg(R6, 0x00000000)  returns 0x00 (0000ms, 0752ms total)
T2040 001:166 JLINK_WriteReg(R7, 0x00000000)  returns 0x00 (0000ms, 0752ms total)
T2040 001:166 JLINK_WriteReg(R8, 0x00000000)  returns 0x00 (0000ms, 0752ms total)
T2040 001:166 JLINK_WriteReg(R9, 0x20000160)  returns 0x00 (0000ms, 0752ms total)
T2040 001:166 JLINK_WriteReg(R10, 0x00000000)  returns 0x00 (0000ms, 0752ms total)
T2040 001:166 JLINK_WriteReg(R11, 0x00000000)  returns 0x00 (0000ms, 0752ms total)
T2040 001:166 JLINK_WriteReg(R12, 0x00000000)  returns 0x00 (0000ms, 0752ms total)
T2040 001:166 JLINK_WriteReg(R13 (SP), 0x20000800)  returns 0x00 (0000ms, 0752ms total)
T2040 001:166 JLINK_WriteReg(R14, 0x20000001)  returns 0x00 (0000ms, 0752ms total)
T2040 001:166 JLINK_WriteReg(R15 (PC), 0x200000F4)  returns 0x00 (0000ms, 0752ms total)
T2040 001:166 JLINK_WriteReg(XPSR, 0x01000000)  returns 0x00 (0000ms, 0752ms total)
T2040 001:166 JLINK_WriteReg(MSP, 0x20000800)  returns 0x00 (0000ms, 0752ms total)
T2040 001:166 JLINK_WriteReg(PSP, 0x20000800)  returns 0x00 (0000ms, 0752ms total)
T2040 001:166 JLINK_WriteReg(CFBP, 0x00000000)  returns 0x00 (0000ms, 0752ms total)
T2040 001:167 JLINK_SetBPEx(Addr = 0x20000000, Type = 0xFFFFFFF2)  returns 0x0000000A (0000ms, 0753ms total)
T2040 001:167 JLINK_Go() (0001ms, 0754ms total)
T2040 001:168 JLINK_IsHalted()  returns FALSE (0001ms, 0755ms total)
T2040 001:170 JLINK_IsHalted()  returns FALSE (0000ms, 0754ms total)
T2040 001:171 JLINK_IsHalted()  returns FALSE (0000ms, 0754ms total)
T2040 001:172 JLINK_IsHalted()  returns FALSE (0000ms, 0754ms total)
T2040 001:173 JLINK_IsHalted()  returns FALSE (0000ms, 0754ms total)
T2040 001:174 JLINK_IsHalted()  returns FALSE (0000ms, 0754ms total)
T2040 001:175 JLINK_IsHalted()  returns FALSE (0000ms, 0754ms total)
T2040 001:176 JLINK_IsHalted()  returns FALSE (0000ms, 0754ms total)
T2040 001:177 JLINK_IsHalted()  returns FALSE (0000ms, 0754ms total)
T2040 001:178 JLINK_IsHalted()  returns FALSE (0000ms, 0754ms total)
T2040 001:179 JLINK_IsHalted()  returns FALSE (0000ms, 0754ms total)
T2040 001:180 JLINK_IsHalted()  returns FALSE (0000ms, 0754ms total)
T2040 001:181 JLINK_IsHalted()  returns FALSE (0000ms, 0754ms total)
T2040 001:182 JLINK_IsHalted()  returns FALSE (0000ms, 0754ms total)
T2040 001:183 JLINK_IsHalted()  returns FALSE (0000ms, 0754ms total)
T2040 001:184 JLINK_IsHalted()  returns FALSE (0000ms, 0754ms total)
T2040 001:185 JLINK_IsHalted()  returns FALSE (0000ms, 0754ms total)
T2040 001:186 JLINK_IsHalted()  returns FALSE (0000ms, 0754ms total)
T2040 001:187 JLINK_IsHalted()  returns FALSE (0000ms, 0754ms total)
T2040 001:188 JLINK_IsHalted()  returns FALSE (0000ms, 0754ms total)
T2040 001:189 JLINK_IsHalted()  returns FALSE (0000ms, 0754ms total)
T2040 001:190 JLINK_IsHalted()  returns FALSE (0000ms, 0754ms total)
T2040 001:191 JLINK_IsHalted()  returns FALSE (0000ms, 0754ms total)
T2040 001:192 JLINK_IsHalted()  returns FALSE (0000ms, 0754ms total)
T2040 001:193 JLINK_IsHalted()  returns FALSE (0000ms, 0754ms total)
T2040 001:194 JLINK_IsHalted()  returns FALSE (0000ms, 0754ms total)
T2040 001:195 JLINK_IsHalted()  returns FALSE (0000ms, 0754ms total)
T2040 001:196 JLINK_IsHalted()  returns FALSE (0000ms, 0754ms total)
T2040 001:197 JLINK_IsHalted()  returns FALSE (0000ms, 0754ms total)
T2040 001:198 JLINK_IsHalted()  returns FALSE (0000ms, 0754ms total)
T2040 001:199 JLINK_IsHalted() -- CPU_ReadMem(2 bytes @ 0x20000000)  returns TRUE (0002ms, 0756ms total)
T2040 001:201 JLINK_ReadReg(R15 (PC))  returns 0x20000000 (0000ms, 0754ms total)
T2040 001:201 JLINK_ClrBPEx(BPHandle = 0x0000000A)  returns 0x00 (0000ms, 0754ms total)
T2040 001:201 JLINK_ReadReg(R0)  returns 0x00000000 (0000ms, 0754ms total)
T2040 001:203 JLINK_WriteMem(0x20000164, 0x0400 Bytes, ...) - Data: 01 02 1A B1 00 F4 80 32 00 2A F5 D0 4F F0 E0 22 ... -- CPU_WriteMem(1024 bytes @ 0x20000164)  returns 0x400 (0002ms, 0756ms total)
T2040 001:205 JLINK_WriteReg(R0, 0x08001800)  returns 0x00 (0000ms, 0756ms total)
T2040 001:205 JLINK_WriteReg(R1, 0x00000400)  returns 0x00 (0000ms, 0756ms total)
T2040 001:205 JLINK_WriteReg(R2, 0x20000164)  returns 0x00 (0000ms, 0756ms total)
T2040 001:205 JLINK_WriteReg(R3, 0x00000000)  returns 0x00 (0000ms, 0756ms total)
T2040 001:205 JLINK_WriteReg(R4, 0x00000000)  returns 0x00 (0000ms, 0756ms total)
T2040 001:205 JLINK_WriteReg(R5, 0x00000000)  returns 0x00 (0000ms, 0756ms total)
T2040 001:205 JLINK_WriteReg(R6, 0x00000000)  returns 0x00 (0000ms, 0756ms total)
T2040 001:205 JLINK_WriteReg(R7, 0x00000000)  returns 0x00 (0000ms, 0756ms total)
T2040 001:205 JLINK_WriteReg(R8, 0x00000000)  returns 0x00 (0000ms, 0756ms total)
T2040 001:205 JLINK_WriteReg(R9, 0x20000160)  returns 0x00 (0000ms, 0756ms total)
T2040 001:205 JLINK_WriteReg(R10, 0x00000000)  returns 0x00 (0000ms, 0756ms total)
T2040 001:205 JLINK_WriteReg(R11, 0x00000000)  returns 0x00 (0000ms, 0756ms total)
T2040 001:205 JLINK_WriteReg(R12, 0x00000000)  returns 0x00 (0000ms, 0756ms total)
T2040 001:205 JLINK_WriteReg(R13 (SP), 0x20000800)  returns 0x00 (0000ms, 0756ms total)
T2040 001:205 JLINK_WriteReg(R14, 0x20000001)  returns 0x00 (0000ms, 0756ms total)
T2040 001:205 JLINK_WriteReg(R15 (PC), 0x200000F4)  returns 0x00 (0000ms, 0756ms total)
T2040 001:205 JLINK_WriteReg(XPSR, 0x01000000)  returns 0x00 (0000ms, 0756ms total)
T2040 001:205 JLINK_WriteReg(MSP, 0x20000800)  returns 0x00 (0000ms, 0756ms total)
T2040 001:205 JLINK_WriteReg(PSP, 0x20000800)  returns 0x00 (0001ms, 0757ms total)
T2040 001:206 JLINK_WriteReg(CFBP, 0x00000000)  returns 0x00 (0000ms, 0757ms total)
T2040 001:206 JLINK_SetBPEx(Addr = 0x20000000, Type = 0xFFFFFFF2)  returns 0x0000000B (0000ms, 0757ms total)
T2040 001:206 JLINK_Go() (0001ms, 0758ms total)
T2040 001:207 JLINK_IsHalted()  returns FALSE (0001ms, 0759ms total)
T2040 001:210 JLINK_IsHalted()  returns FALSE (0000ms, 0758ms total)
T2040 001:211 JLINK_IsHalted()  returns FALSE (0000ms, 0758ms total)
T2040 001:212 JLINK_IsHalted()  returns FALSE (0000ms, 0758ms total)
T2040 001:213 JLINK_IsHalted()  returns FALSE (0000ms, 0758ms total)
T2040 001:214 JLINK_IsHalted()  returns FALSE (0000ms, 0758ms total)
T2040 001:215 JLINK_IsHalted()  returns FALSE (0000ms, 0758ms total)
T2040 001:216 JLINK_IsHalted()  returns FALSE (0000ms, 0758ms total)
T2040 001:217 JLINK_IsHalted()  returns FALSE (0000ms, 0758ms total)
T2040 001:221 JLINK_IsHalted()  returns FALSE (0000ms, 0758ms total)
T2040 001:222 JLINK_IsHalted()  returns FALSE (0000ms, 0758ms total)
T2040 001:223 JLINK_IsHalted()  returns FALSE (0000ms, 0758ms total)
T2040 001:224 JLINK_IsHalted()  returns FALSE (0000ms, 0758ms total)
T2040 001:225 JLINK_IsHalted()  returns FALSE (0000ms, 0758ms total)
T2040 001:226 JLINK_IsHalted()  returns FALSE (0000ms, 0758ms total)
T2040 001:227 JLINK_IsHalted()  returns FALSE (0000ms, 0758ms total)
T2040 001:228 JLINK_IsHalted()  returns FALSE (0000ms, 0758ms total)
T2040 001:229 JLINK_IsHalted()  returns FALSE (0000ms, 0758ms total)
T2040 001:230 JLINK_IsHalted()  returns FALSE (0000ms, 0758ms total)
T2040 001:231 JLINK_IsHalted()  returns FALSE (0000ms, 0758ms total)
T2040 001:236 JLINK_IsHalted()  returns FALSE (0000ms, 0758ms total)
T2040 001:237 JLINK_IsHalted()  returns FALSE (0000ms, 0758ms total)
T2040 001:238 JLINK_IsHalted() -- CPU_ReadMem(2 bytes @ 0x20000000)  returns TRUE (0002ms, 0760ms total)
T2040 001:240 JLINK_ReadReg(R15 (PC))  returns 0x20000000 (0000ms, 0758ms total)
T2040 001:240 JLINK_ClrBPEx(BPHandle = 0x0000000B)  returns 0x00 (0000ms, 0758ms total)
T2040 001:240 JLINK_ReadReg(R0)  returns 0x00000000 (0001ms, 0759ms total)
T2040 001:241 JLINK_WriteMem(0x20000164, 0x0400 Bytes, ...) - Data: 00 88 40 1E 82 B2 00 21 08 46 FF F7 CB FF 00 BF ... -- CPU_WriteMem(1024 bytes @ 0x20000164)  returns 0x400 (0003ms, 0762ms total)
T2040 001:244 JLINK_WriteReg(R0, 0x08001C00)  returns 0x00 (0000ms, 0762ms total)
T2040 001:244 JLINK_WriteReg(R1, 0x00000400)  returns 0x00 (0000ms, 0762ms total)
T2040 001:244 JLINK_WriteReg(R2, 0x20000164)  returns 0x00 (0000ms, 0762ms total)
T2040 001:244 JLINK_WriteReg(R3, 0x00000000)  returns 0x00 (0000ms, 0762ms total)
T2040 001:244 JLINK_WriteReg(R4, 0x00000000)  returns 0x00 (0000ms, 0762ms total)
T2040 001:244 JLINK_WriteReg(R5, 0x00000000)  returns 0x00 (0000ms, 0762ms total)
T2040 001:244 JLINK_WriteReg(R6, 0x00000000)  returns 0x00 (0000ms, 0762ms total)
T2040 001:244 JLINK_WriteReg(R7, 0x00000000)  returns 0x00 (0000ms, 0762ms total)
T2040 001:244 JLINK_WriteReg(R8, 0x00000000)  returns 0x00 (0000ms, 0762ms total)
T2040 001:244 JLINK_WriteReg(R9, 0x20000160)  returns 0x00 (0000ms, 0762ms total)
T2040 001:244 JLINK_WriteReg(R10, 0x00000000)  returns 0x00 (0000ms, 0762ms total)
T2040 001:244 JLINK_WriteReg(R11, 0x00000000)  returns 0x00 (0000ms, 0762ms total)
T2040 001:244 JLINK_WriteReg(R12, 0x00000000)  returns 0x00 (0000ms, 0762ms total)
T2040 001:244 JLINK_WriteReg(R13 (SP), 0x20000800)  returns 0x00 (0000ms, 0762ms total)
T2040 001:244 JLINK_WriteReg(R14, 0x20000001)  returns 0x00 (0000ms, 0762ms total)
T2040 001:244 JLINK_WriteReg(R15 (PC), 0x200000F4)  returns 0x00 (0000ms, 0762ms total)
T2040 001:244 JLINK_WriteReg(XPSR, 0x01000000)  returns 0x00 (0000ms, 0762ms total)
T2040 001:244 JLINK_WriteReg(MSP, 0x20000800)  returns 0x00 (0000ms, 0762ms total)
T2040 001:244 JLINK_WriteReg(PSP, 0x20000800)  returns 0x00 (0000ms, 0762ms total)
T2040 001:244 JLINK_WriteReg(CFBP, 0x00000000)  returns 0x00 (0000ms, 0762ms total)
T2040 001:244 JLINK_SetBPEx(Addr = 0x20000000, Type = 0xFFFFFFF2)  returns 0x0000000C (0000ms, 0762ms total)
T2040 001:244 JLINK_Go() (0002ms, 0764ms total)
